VIN,IIN,VOUT,IOUT,P_LOSS,EFF,D
36.071255,0.1087934,11.546707,0.12767,2.450146391,0.375649835,0.852145375
36.071039,0.140322,11.541639,0.225478,2.459174656,0.514146924,0.622331225
36.065862,0.1577948,11.538295,0.280008,2.460190575,0.567705464,0.563536756
36.061441,0.201152,11.531285,0.414602,2.472937156,0.659085363,0.485168909
36.060146,0.2244202,11.52654,0.487308,2.475650023,0.694085668,0.460530506
36.052382,0.2721024,11.518344,0.637698,2.464714736,0.748753324,0.426694768
36.052921,0.2966896,11.514677,0.713868,2.47656727,0.768469959,0.415608488
36.047744,0.3474858,11.504971,0.872914,2.483228907,0.801755292,0.398075641
36.044401,0.3732408,11.501412,0.953844,2.482688237,0.815457983,0.391301722
36.039979,0.4259186,11.492137,1.118516,2.495958291,0.837397886,0.38078901
36.03793,0.451825,11.487931,1.199228,2.506189205,0.846084003,0.376763218
36.036744,0.5043944,11.47952,1.36455,2.512352852,0.861781927,0.369641567
36.030381,0.5306898,11.473912,1.446994,2.518273866,0.868297699,0.366753283
36.027361,0.5833674,11.4655,1.612098,2.533678296,0.879447322,0.361868447
36.026283,0.6360882,11.455901,1.77742,2.553945951,0.888551326,0.357871634
36.02391,0.662189,11.453097,1.858782,2.565826391,0.892439093,0.356248877
36.016793,0.7146936,11.442529,2.024536,2.575159558,0.899958727,0.353016
36.01194,0.7412702,11.438215,2.106764,2.59695838,0.902715885,0.351852509
36.007194,0.7934072,11.428832,2.27057,2.618403897,0.908346042,0.349430848
36.005685,0.819919,11.424842,2.353448,2.633973684,0.910778524,0.348390532
36.001371,0.8721212,11.415136,2.517254,2.662762122,0.915192065,0.34645737
35.997273,0.8984384,11.411361,2.599266,2.680169697,0.917128655,0.345650811
35.997704,0.9511158,11.402734,2.764586,2.71414626,0.920727045,0.344035526
35.995655,0.9765464,11.398528,2.844868,2.724119752,0.922503296,0.343265979
35.988753,1.0292888,11.389792,3.009972,2.759865383,0.925495269,0.341959593
35.98789,1.0555412,11.384939,3.091984,2.784651367,0.926694045,0.341379904
35.983037,1.108089,11.376743,3.25644,2.824726511,0.929155858,0.340276191
35.981635,1.1343414,11.372429,3.338884,2.844236991,0.930314711,0.33973669
35.974409,1.2248188,11.703299,3.507884,3.008317153,0.931725566,0.349161717
35.971282,1.2519144,11.700064,3.590976,3.0183169,0.932975392,0.348627894
35.971821,1.3056952,11.696289,3.755866,3.038539834,0.935306492,0.347641583
35.967939,1.3322718,11.694779,3.837228,3.043537401,0.936485884,0.347196414
35.960821,1.3860954,11.688955,4.002116,3.06457474,0.938518069,0.346340636
35.957693,1.4131046,11.685397,4.084776,3.079752168,0.939389253,0.345944208
35.951977,1.4666254,11.680651,4.249236,3.094239916,0.941317041,0.345150375
35.945938,1.4935914,11.6772,4.332114,3.101582261,0.942230092,0.344771952
35.93731,1.5470042,11.670837,4.496352,3.11897822,0.943898395,0.344057627
35.925555,1.6011306,11.662641,4.661458,3.156594242,0.945123233,0.34348279
35.899672,1.627945,11.653366,4.743686,3.162782387,0.945882328,0.343181442
35.840897,1.681272,11.630719,4.907492,3.180636134,0.947216627,0.342592917
35.848661,1.7083242,11.632337,4.990152,3.194005379,0.947845425,0.342339111
35.842514,1.7617586,11.627268,5.153958,3.219406358,0.949016349,0.34182634
35.845642,1.7886814,11.625974,5.236836,3.233113938,0.949574332,0.34155765
35.843808,1.842613,11.622954,5.401292,3.267298134,0.950530162,0.341143008
35.842406,1.8684978,11.620366,5.481356,3.276093861,0.951082237,0.340882402
35.842622,1.9224296,11.616052,5.646244,3.317853566,0.951848813,0.34047937
35.843593,1.9493738,11.616052,5.728904,3.325314325,0.952408867,0.340269936
35.83874,2.0027434,11.61066,5.893144,3.352508684,0.953291936,0.339842943
35.84122,2.0297524,11.610228,5.975588,3.3708632,0.953664348,0.339674087
35.833347,2.083057,11.603865,6.138962,3.407218014,0.954353089,0.339317461
35.834749,2.1099588,11.602895,6.221406,3.423523428,0.954721194,0.33914501
35.833347,2.1637608,11.598365,6.386512,3.461694319,0.95535302,0.338801649
35.832592,2.1903374,11.596208,6.46809,3.480149394,0.955658677,0.338637434
35.83119,2.244161,11.594483,6.633194,3.502504113,0.956442453,0.338322835
35.830436,2.2711268,11.591247,6.715856,3.530317743,0.956616926,0.338173838
35.826661,2.3250802,11.587149,6.881176,3.566648516,0.957183019,0.337889948
35.822347,2.3521542,11.585316,6.963838,3.581420147,0.957495448,0.337766933
35.815984,2.4055454,11.578737,7.127428,3.630361259,0.957863409,0.337505395
35.817925,2.4325114,11.578198,7.210304,3.645183535,0.958162657,0.337365997
35.809729,2.486443,11.572698,7.375842,3.680458042,0.958664582,0.337106326
35.812533,2.5126738,11.571404,7.456122,3.707413445,0.958799748,0.336994727
35.813612,2.5666062,11.567629,7.621444,3.757401967,0.95912288,0.336761144
35.811131,2.619954,11.564933,7.78525,3.78762127,0.959630363,0.336527921
35.804876,2.6469416,11.562776,7.868344,3.793516604,0.959972777,0.336403899
35.801209,2.7008084,11.558247,8.033016,3.844622914,0.960238544,0.336213497
35.808651,2.7267152,11.558139,8.112214,3.877895963,0.960283734,0.336124663
35.805847,2.7806468,11.552423,8.277536,3.937816612,0.96044916,0.335926875
35.804121,2.807656,11.551776,8.35998,3.953038826,0.960676319,0.335844823
35.80067,2.8610688,11.547246,8.524222,3.996891563,0.960978594,0.335639874
35.800994,2.8878832,11.545844,8.606884,4.015349126,0.961162738,0.335531791
35.798082,2.9412746,11.541746,8.77004,4.070415225,0.961341644,0.335377558
35.796572,2.9681324,11.539374,8.852918,4.091833369,0.961488252,0.335271647
35.792905,3.0219128,11.534736,9.018022,4.142534756,0.961701013,0.335097076
35.794954,3.048576,11.533766,9.099602,4.170957524,0.96177769,0.335023004
35.792366,3.1022482,11.530962,9.264274,4.210811546,0.962077334,0.334861447
35.785033,3.129279,11.527511,9.346934,4.23446778,0.962185956,0.334792029
35.786003,3.181503,11.524168,9.507928,4.282316299,0.962387413,0.334615807
35.784062,3.2085338,11.521687,9.590372,4.317108031,0.962399237,0.334557804
35.782013,3.2618168,11.518128,9.754394,4.362012487,0.962626603,0.334394612
35.777052,3.2888692,11.514677,9.837056,4.395521919,0.962644092,0.334334703
35.776944,3.3423036,11.511657,10.00216,4.435973549,0.962902913,0.334158182
35.779532,3.3687722,11.511226,10.082874,4.466851387,0.962940871,0.334108331
35.773062,3.4226176,11.505942,10.24841,4.519900555,0.963084021,0.333965718
35.773601,3.4495834,11.504432,10.331072,4.550904857,0.963121908,0.333903723
35.769287,3.5028882,11.499471,10.49488,4.610245146,0.963205114,0.333771153
35.766699,3.5566036,11.496236,10.659984,4.658278603,0.963380607,0.333640613
35.765513,3.5827914,11.494618,10.739616,4.692589006,0.963379309,0.333605168
35.762385,3.6365502,11.489765,10.90537,4.751569786,0.963463996,0.333464174
35.755914,3.6634944,11.4875,10.988464,4.761610506,0.963649495,0.333394585
35.755052,3.7167342,11.482647,11.151838,4.839405436,0.963583929,0.333284451
35.755914,3.7436568,11.481137,11.234498,4.873059922,0.963595268,0.333228668
35.749444,3.7968536,11.476716,11.397872,4.925265201,0.963714219,0.333119516
35.755806,3.8237114,11.4765,11.480316,4.966036444,0.963677292,0.333066738
35.749767,3.8774052,11.472186,11.64542,5.017908176,0.963800022,0.332955376
35.743728,3.9040036,11.468304,11.726784,5.057318935,0.963758156,0.332913406
35.738767,3.9575676,11.464529,11.892104,5.101215164,0.963933356,0.332789522
35.738659,3.984447,11.461833,11.974548,5.14852321,0.963844334,0.332742998
35.739737,4.0384876,11.458921,12.13987,5.224673421,0.963801628,0.332663167
35.737257,4.0653454,11.457195,12.222314,5.250858504,0.963858044,0.332616671
35.737904,4.1188446,11.454931,12.38677,5.309277243,0.963931264,0.332519664
35.741463,4.1456374,11.453529,12.469646,5.349693663,0.963895172,0.332458307
35.733806,4.1992884,11.448891,12.634756,5.402612768,0.963996157,0.332360071
35.735747,4.225692,11.447058,12.715686,5.45106506,0.963902206,0.332321198
35.72809,4.2793642,11.441774,12.880574,5.516892582,0.963916764,0.332233967
35.723776,4.3063734,11.43994,12.963234,5.541299548,0.963980093,0.332199002
35.727551,4.3595916,11.437352,13.127474,5.613990219,0.963956862,0.332096761
35.730247,4.3865358,11.436705,13.209484,5.659035898,0.963893553,0.332074728
35.720325,4.4392142,11.431097,13.371994,5.713613471,0.963967918,0.331978477
35.721619,4.4929296,11.427646,13.537098,5.797555554,0.96387697,0.331897546
35.717737,4.519809,11.42441,13.619542,5.842117332,0.96381186,0.331862041
35.715364,4.5732002,11.419989,13.783566,5.925337687,0.963722462,0.331786433
35.718168,4.6001444,11.420959,13.86601,5.9455988,0.963814468,0.331756893
35.723884,4.6531682,11.417832,14.029384,6.044091434,0.963640023,0.331673023
35.720972,4.680199,11.417293,14.112044,6.059916257,0.963752418,0.33164572
35.722051,4.7338712,11.412871,14.277148,6.160340062,0.963570613,0.331569807
35.727874,4.7602964,11.413518,14.358944,6.189204177,0.963609029,0.331521343
35.720865,4.814012,11.407802,14.524264,6.270744853,0.963533843,0.331446192
35.717629,4.841043,11.405214,14.606492,6.320410798,0.96344694,0.331430914
35.718923,4.8943908,11.402194,14.770948,6.401153457,0.963384814,0.331352517
35.72108,4.9214648,11.401439,14.85361,6.447509493,0.963324755,0.331331225
35.718923,4.9748344,11.397773,15.017416,6.530628257,0.963248254,0.331270999
35.717845,5.0016706,11.396155,15.10051,6.561142693,0.963273533,0.331225276
35.708354,5.0552138,11.390547,15.265398,6.632130523,0.963259615,0.331155061
35.711806,5.0816176,11.389792,15.345678,6.689661378,0.963137028,0.331143244
35.707815,5.135333,11.384184,15.511216,6.78898372,0.962976891,0.331072238
35.706737,5.1622124,11.382998,15.594092,6.818242457,0.963009823,0.331036421
35.703933,5.2154306,11.379655,15.75725,6.89931596,0.962949011,0.330986092
35.703286,5.2423748,11.376635,15.83991,6.965132301,0.962787134,0.330959886
35.700374,5.295139,11.373076,16.002636,7.039247254,0.96276288,0.330891673
35.703717,5.3219536,11.371027,16.084862,7.112125128,0.962570427,0.330867222
35.698433,5.3756042,11.365635,16.249968,7.209441319,0.962431386,0.330807064
35.695629,5.4022242,11.364772,16.33133,7.233948911,0.962486482,0.330788993
35.694442,5.4557672,11.360242,16.496218,7.339537321,0.962311205,0.330728365
35.688619,5.5091368,11.355821,16.659808,7.427686732,0.962221885,0.330684291
35.688727,5.5359946,11.353125,16.74247,7.493245234,0.962073459,0.330655787
35.68355,5.5896236,11.34935,16.907364,7.570021598,0.962046966,0.330602902
35.684952,5.6159624,11.347301,16.988294,7.634063183,0.961906889,0.330578362
35.682687,5.6695918,11.343526,17.153398,7.726253416,0.961809125,0.330522955
35.682795,5.6965144,11.342016,17.235842,7.778359812,0.961733392,0.330503981
35.676756,5.750338,11.336516,17.401596,7.879934264,0.961590039,0.330448885
35.677403,5.777304,11.335007,17.484258,7.935016242,0.96150278,0.330428892
35.674275,5.8306302,11.330801,17.64828,8.034356506,0.961373937,0.330379516
35.670932,5.8574014,11.326702,17.731374,8.100977688,0.961228019,0.330341089
35.669314,5.9112258,11.323575,17.89583,8.204595993,0.96108788,0.330313028
35.665001,5.9376078,11.321418,17.977192,8.237483026,0.96110079,0.330285609
35.665432,5.9913882,11.317859,18.142296,8.353500368,0.960907491,0.330244209
35.666726,6.0182676,11.316457,18.22474,8.412414938,0.960809036,0.330225155
35.666187,6.0713344,11.312143,18.388548,8.527463512,0.960619699,0.330169321
35.666618,6.0983652,11.310418,18.470774,8.595887289,0.960480144,0.330162948
35.665324,6.1511076,11.306859,18.633066,8.699795513,0.960343941,0.330117845
35.664893,6.1779654,11.304918,18.715294,8.761610933,0.960235313,0.330102503
35.660255,6.2315512,11.29931,18.880616,8.880771663,0.960035895,0.330050206
35.657991,6.2581712,11.297368,18.961978,8.933368852,0.959967662,0.33003789
35.65303,6.3117572,11.292084,19.127082,9.048652185,0.959789714,0.329990597
35.653245,6.3384636,11.290574,19.209094,9.105098374,0.9597096,0.329972023
35.65249,6.3917468,11.286476,19.372468,9.234793727,0.95947549,0.329939727
35.649036,6.4453108,11.281299,19.53779,9.357465951,0.959274484,0.32988945
35.64936,6.4718226,11.279143,19.618502,9.43644422,0.959099366,0.329883627
35.644507,6.525409,11.274397,19.78404,9.541865554,0.958976478,0.329831976
35.645046,6.55231,11.271701,19.866052,9.633193162,0.958754492,0.329824466
35.642026,6.6049226,11.26825,20.027694,9.735760122,0.958643884,0.329789471
35.642781,6.6319534,11.266632,20.110138,9.807738323,0.958508817,0.329781596
35.635232,6.6851716,11.26027,20.274162,9.935102782,0.95829576,0.329738492
35.641811,6.7122028,11.260162,20.356822,10.01395007,0.958141796,0.32972744
35.637497,6.7658102,11.25423,20.52236,10.15318112,0.95789098,0.32967993
35.634801,6.7923002,11.252505,20.60264,10.21095635,0.957813334,0.32968106
35.634477,6.8461456,11.248946,20.767962,10.34113485,0.957611145,0.329649371
35.637605,6.8728952,11.247328,20.850838,10.41731028,0.957468826,0.329622013
35.63534,6.9262434,11.242152,21.01465,10.56914895,0.957178551,0.329591185
35.63232,6.953058,11.239671,21.096878,10.63161979,0.957087928,0.32957758
35.631242,7.0059302,11.236544,21.259604,10.74551862,0.956954217,0.329541896
35.633399,7.0329176,11.234279,21.341614,10.84911299,0.956708618,0.329540099
35.627791,7.0867414,11.228671,21.506936,10.99063291,0.956470145,0.329509578
35.62984,7.1132964,11.227053,21.588514,11.07022174,0.956321115,0.32949449
35.623801,7.1667098,11.223063,21.75362,11.163196,0.956275135,0.329449066
35.62682,7.1940432,11.220043,21.836064,11.29930513,0.955913905,0.329456957
35.623477,7.2470236,11.214867,21.999438,11.44340729,0.955673915,0.329418579
35.621752,7.2737516,11.212171,22.081882,11.51793862,0.955547006,0.329399079
35.617546,7.327294,11.208935,22.246122,11.6248956,0.955456796,0.329373992
35.617438,7.3809884,11.204406,22.410794,11.79226196,0.955144065,0.329349705
35.61582,7.4078678,11.201602,22.492804,11.88184788,0.954965244,0.3293439
35.613879,7.4614968,11.196533,22.658558,12.03555181,0.954708076,0.329301485
35.616144,7.4885708,11.193945,22.741436,12.14763216,0.954454466,0.329291906
35.611614,7.541897,11.188876,22.905026,12.2976291,0.954212268,0.329268214
35.610859,7.5687768,11.186288,22.987686,12.38376738,0.954054325,0.329253532
35.609134,7.6226004,11.182297,23.152358,12.53765567,0.953809595,0.32923646
35.606653,7.6489608,11.178415,23.233288,12.64255794,0.953580403,0.329224206
35.606545,7.7026764,11.17518,23.398392,12.78445155,0.953386618,0.329196827
35.603526,7.7295126,11.171621,23.481054,12.87646685,0.953210156,0.32918082
35.602986,7.7829262,11.167091,23.644644,13.05352133,0.952891601,0.329162334
35.602663,7.8098272,11.164826,23.727088,13.14183688,0.952735816,0.329152368
35.599859,7.8628074,11.159865,23.889596,13.31016852,0.952449221,0.329131033
35.599643,7.8897084,11.157493,23.972256,13.4005239,0.952289367,0.329118311
35.59382,7.9435536,11.150914,24.137794,13.58295196,0.951959808,0.329091946
35.59231,7.9699362,11.148218,24.21894,13.67041706,0.951808467,0.329078655
35.589074,8.0237382,11.143042,24.383612,13.84979993,0.951499071,0.329062741
35.591447,8.0507256,11.140453,24.466056,13.97402654,0.951231332,0.329056943
35.586055,8.1038572,11.135492,24.629646,14.12108204,0.951033806,0.32902857
35.587241,8.1308664,11.132796,24.71209,14.24044541,0.950785573,0.329023826
35.581849,8.184258,11.126757,24.875898,14.42296013,0.95047248,0.32900352
35.584437,8.2112238,11.124061,24.958126,14.55605993,0.950183198,0.329000014
35.579692,8.2648962,11.118561,25.123014,14.73069755,0.949906229,0.328977096
35.580015,8.2914512,11.117051,25.204598,14.80915667,0.949801163,0.328965818
35.576349,8.3454694,11.110472,25.370136,15.02714628,0.949386733,0.328948548
35.571927,8.39871,11.106051,25.534376,15.1722169,0.949215747,0.32891777
35.568692,8.4257624,11.101305,25.616604,15.3156136,0.948895717,0.32891801
35.565456,8.479413,11.095697,25.781276,15.51296319,0.948560044,0.328898112
35.563407,8.5058816,11.092354,25.862422,15.62298911,0.948353436,0.328889599
35.563407,8.5598782,11.08804,26.028176,15.81697568,0.948041991,0.328869691
35.568799,8.5868658,11.086746,26.110836,15.9402971,0.947809371,0.328862155
35.565672,8.6402572,11.082001,26.274642,16.12094465,0.947539455,0.328843955
35.563191,8.6670718,11.076609,26.35687,16.28398638,0.947169148,0.328835397
35.55575,8.7199656,11.069922,26.518946,16.48225314,0.946839144,0.328820218
35.56125,8.7469098,11.068197,26.601606,16.6192304,0.94657073,0.328811343
35.556074,8.8007984,11.061834,26.766928,16.83052494,0.946214924,0.328793741
35.552946,8.8273322,11.058706,26.84829,16.93031932,0.946053896,0.32878564
35.550034,8.8813072,11.052991,27.013394,17.15197216,0.945675323,0.328774207
35.553485,8.9080784,11.049539,27.095622,17.31909975,0.945316147,0.328764492
35.546799,8.9614696,11.042853,27.258996,17.53447286,0.944955621,0.328752739
35.548524,8.9881976,11.041451,27.341878,17.62315192,0.944844427,0.328733732
35.544966,9.0415242,11.034549,27.505252,17.87261933,0.944388008,0.328719919
35.540867,9.0685982,11.030559,27.588128,17.9933689,0.944172998,0.328713793
35.541407,9.1223138,11.025059,27.752368,18.24837296,0.943716056,0.328703979
35.539681,9.1493446,11.02301,27.835028,18.33899645,0.943600915,0.328698954
35.538279,9.2032546,11.016215,28.000782,18.605195,0.943115179,0.328678485
35.535583,9.2300916,11.012333,28.08301,18.73722839,0.942873727,0.328671734
35.530838,9.2835044,11.005431,28.2466,18.98468362,0.942444615,0.32865918
35.529867,9.3372416,11.000578,28.411922,19.2033881,0.942115048,0.328638154
35.528249,9.3638182,10.996048,28.49285,19.37131834,0.941771929,0.328637472
35.527063,9.4175338,10.990979,28.657956,19.59832404,0.941423632,0.328618475
35.531161,9.444565,10.988715,28.740616,19.75392144,0.941134347,0.328613868
35.528034,9.4979994,10.982136,28.90399,20.01769649,0.940678683,0.32860513
35.528357,9.5250518,10.978901,28.986868,20.16548672,0.940410981,0.328598861
35.525553,9.5777942,10.971999,29.149158,20.43190305,0.939951457,0.32857876
35.524475,9.6049548,10.968116,29.23182,20.59298402,0.939647358,0.328578747
35.525553,9.6586924,10.962077,29.396926,20.87902239,0.939151346,0.328561306
35.524475,9.6852474,10.959489,29.478072,20.9987233,0.938968435,0.328557695
35.521024,9.7389844,10.952694,29.64296,21.26842847,0.938519661,0.328542912
35.519083,9.7659288,10.947949,29.725406,21.44460673,0.938178037,0.328538113
35.513906,9.8194496,10.940831,29.888778,21.71894117,0.937719361,0.32853299
35.516171,9.8463506,10.936625,29.971006,21.92301814,0.937309908,0.328529199
35.510347,9.8995908,10.929831,30.135246,22.16475854,0.936949165,0.328505392
35.511749,9.9267514,10.925949,30.217474,22.36172427,0.936565418,0.328510298
35.510886,9.980402,10.920017,30.38193,22.64172556,0.936114841,0.328497959
35.508945,10.0060488,10.915703,30.460696,22.8043258,0.935817467,0.328490485
35.5042,10.060067,10.908154,30.626232,23.09897569,0.935328622,0.328478769
35.5042,10.0870552,10.903948,30.708676,23.28701898,0.934976586,0.328475744
35.50118,10.1405328,10.897262,30.872484,23.57533349,0.934513123,0.328465076
35.501612,10.1674986,10.892948,30.955144,23.76981638,0.934148809,0.328459096
35.495572,10.2208898,10.883997,31.118302,24.10482419,0.933558247,0.328452684
35.494602,10.2749298,10.877957,31.28384,24.40027751,0.933095768,0.32844209
35.491906,10.3020042,10.872673,31.3665,24.60006702,0.932720114,0.328439711
35.489317,10.3552656,10.865447,31.530746,24.90565396,0.932229753,0.328418034
48.099292,0.0983488,11.998149,0.129834,3.172739972,0.329302433,0.757496496
48.096596,0.122871,11.998688,0.22829,3.170496364,0.463507659,0.538223312
48.09789,0.1364296,11.998796,0.28282,3.168476409,0.517145985,0.482390213
48.096812,0.170337,11.99858,0.418712,3.168717237,0.613225172,0.406811842
48.094978,0.18848,11.99858,0.49142,3.16859927,0.650455628,0.383541573
48.09142,0.2260636,11.998796,0.641594,3.173364013,0.708108363,0.352346811
48.091527,0.245115,11.999335,0.718196,3.170080241,0.731074615,0.341292628
48.090557,0.2850124,11.999227,0.877674,3.17499551,0.768356801,0.324736064
48.085704,0.305253,11.999227,0.958388,3.178390237,0.783463407,0.318506701
48.085057,0.346491,11.999658,1.123276,3.182111645,0.809008817,0.308464705
48.08139,0.3666668,11.999658,1.204638,3.174605397,0.81993009,0.304379241
48.083115,0.408251,11.999011,1.369526,3.197022243,0.837135734,0.298096568
48.075782,0.4288164,11.999766,1.451538,3.197567424,0.844896368,0.295422097
48.080311,0.4702924,11.999119,1.61686,3.210909307,0.85799854,0.290867731
