VIN,IIN,VOUT,IOUT,P_LOSS,EFF,D
75.12329,0.3891564,11.992864,2.024752,4.952133723,0.83060773,0.192199539
75.118113,0.4024124,11.993727,2.10698,4.957917221,0.835985121,0.190990138
75.118437,0.4286,11.993619,2.27057,4.963410605,0.845836524,0.188763174
75.123182,0.4417912,11.992864,2.353232,4.966769387,0.85034785,0.187738056
75.121025,0.468411,11.993619,2.516822,5.001710282,0.857855539,0.186112089
75.118653,0.4815588,11.993403,2.599266,5.000003754,0.86177926,0.185267225
75.114878,0.5079624,11.992541,2.764586,5.001122752,0.868927983,0.183739048
75.109486,0.5209156,11.992648,2.844002,5.018588068,0.871731683,0.183162881
75.114231,0.5474922,11.993295,3.00954,5.030154547,0.877684592,0.181918898
75.11078,0.560748,11.99308,3.091984,5.035808193,0.880436347,0.181355402
75.113692,0.58713,11.992756,3.256006,5.053016491,0.88542303,0.180322149
75.113907,0.6004724,11.99308,3.338234,5.068120589,0.887634358,0.179877264
75.108623,0.6268328,11.993619,3.501608,5.08359622,0.892023428,0.179012842
75.109162,0.6401752,11.99308,3.583836,5.10179095,0.89389621,0.178628486
75.108084,0.6669032,11.993295,3.749158,5.12506367,0.897682533,0.177880794
75.105819,0.6800294,11.993835,3.83052,5.131540187,0.899527673,0.177529265
75.106574,0.7066276,11.993295,3.995408,5.15427134,0.902882224,0.176859935
75.105388,0.720143,11.993727,4.077202,5.185771719,0.904120986,0.176626765
75.103015,0.74659,11.993619,4.241662,5.198282014,0.907291342,0.176013553
75.09978,0.7600188,11.992972,4.324756,5.210567061,0.908710256,0.175736805
75.100427,0.7867252,11.992972,4.488778,5.249609583,0.91114916,0.175264894
75.098485,0.8134748,11.992864,4.653234,5.285122544,0.913487317,0.174819233
75.100642,0.8269902,11.993619,4.736112,5.304372078,0.914593688,0.174613734
75.096329,0.8534808,11.992325,4.89927,5.339636849,0.916689593,0.174205708
75.09676,0.8669312,11.992972,4.982146,5.352986785,0.917777564,0.174007586
75.095142,0.8937458,11.99308,5.145952,5.400153751,0.919539956,0.173679389
75.094927,0.9072396,11.99308,5.228396,5.424520034,0.9203788,0.173521592
75.093848,0.9340108,11.993727,5.393502,5.450274484,0.922292647,0.173173348
75.089642,0.9470936,11.993943,5.473132,5.472486125,0.923049449,0.173044173
75.091799,0.9740596,11.993727,5.638886,5.512628429,0.924633095,0.172739722
75.090289,0.987683,11.993943,5.721332,5.544072018,0.925247192,0.172631653
75.082848,1.014411,11.993511,5.885786,5.573627788,0.926821538,0.172349284
75.086191,1.0278832,11.992217,5.967798,5.612705653,0.927277563,0.172238269
75.084573,1.0545466,11.993188,6.131172,5.647882713,0.9286705,0.171997556
75.082309,1.0682998,11.993295,6.21405,5.683480893,0.929142857,0.171916834
75.084573,1.095136,11.993188,6.37937,5.718835205,0.930451333,0.171668362
75.082956,1.1085216,11.993619,6.4603,5.748701692,0.930930828,0.171589802
75.082309,1.1358118,11.993403,6.625404,5.818232324,0.931774447,0.171432836
75.078318,1.149284,11.993727,6.707848,5.834211955,0.932385427,0.171334234
75.078103,1.1764012,11.993295,6.873386,5.887424516,0.933341336,0.171153082
75.078534,1.1900896,11.994158,6.95583,5.920858456,0.933734232,0.171092393
75.075083,1.2169906,11.993511,7.119638,5.976213636,0.934590163,0.170934337
75.076485,1.2304412,11.992541,7.202514,6.000755847,0.935040726,0.170834961
75.07325,1.2582504,11.993188,7.36762,6.099695069,0.935426276,0.170781121
75.074328,1.2800916,11.993619,7.45028,6.746196885,0.929801714,0.171817918
75.070769,1.307317,11.993403,7.616034,6.799127493,0.930721032,0.171653252
75.071201,1.334391,11.993403,7.780056,6.864988003,0.931469592,0.171514318
75.068073,1.3480144,11.993727,7.862068,6.897346137,0.931839586,0.171457993
75.063651,1.3750884,11.993511,8.026956,6.947770669,0.932689135,0.171308825
75.060308,1.3882796,11.993188,8.10702,6.975679386,0.933057916,0.171244132
75.063112,1.4155914,11.993619,8.272342,7.043377619,0.933714812,0.171123413
75.063759,1.4291284,11.993188,8.35457,7.077821128,0.934022171,0.17105948
75.062034,1.4561376,11.99405,8.51903,7.122978268,0.934831327,0.170927629
75.061494,1.4695664,11.994374,8.601474,7.138553409,0.935285173,0.170850531
75.059661,1.4966188,11.993619,8.764848,7.213452269,0.935786644,0.170752396
75.062573,1.510199,11.993295,8.847724,7.246058671,0.936078903,0.170687851
75.055347,1.537511,11.993835,9.012396,7.305231043,0.936695572,0.170599583
75.056102,1.5510696,11.99308,9.093542,7.357661417,0.93679921,0.170568256
75.053514,1.5783166,11.993295,9.258648,7.416510269,0.937391334,0.170469447
75.053298,1.5920266,11.99308,9.340876,7.460973696,0.937558201,0.170436541
75.05222,1.6186896,11.99308,9.502302,7.524379901,0.938063937,0.170347101
75.048337,1.6323348,11.993403,9.58453,7.552881312,0.938345845,0.170309321
75.049416,1.6595818,11.993403,9.748984,7.627150942,0.938762654,0.170231257
75.049739,1.6734216,11.993295,9.831646,7.676023503,0.938880226,0.170207674
75.047906,1.7004096,11.992541,9.996318,7.730926358,0.939418586,0.170103592
75.047259,1.714098,11.992433,10.077896,7.779863996,0.939521429,0.170084907
75.042945,1.7414532,11.992217,10.243218,7.844883673,0.939970485,0.170010362
75.043269,1.755228,11.992109,10.325446,7.894173055,0.940067643,0.169990526
75.043376,1.782302,11.991786,10.489686,7.959889412,0.94048679,0.169909948
75.039063,1.8097436,11.992325,10.654358,8.030940212,0.940862639,0.16985947
75.042514,1.8231942,11.992541,10.73464,8.081465958,0.94093233,0.169842137
75.037014,1.8505494,11.992109,10.900176,8.143602524,0.941353737,0.169772433
75.040141,1.8644972,11.992433,10.981972,8.211569364,0.941309097,0.169777996
75.037768,1.891636,11.992325,11.146212,8.275146486,0.941701388,0.169711109
75.037768,1.9055624,11.992325,11.228872,8.328866873,0.941751756,0.169702032
75.035504,1.9324418,11.992109,11.392678,8.379508036,0.942210985,0.169621383
75.034317,1.9461734,11.992325,11.475122,8.416399394,0.942365189,0.169599365
75.036906,1.9735068,11.992648,11.640228,8.488687198,0.942677254,0.169541937
75.032808,1.9872168,11.992433,11.722238,8.528302784,0.942803934,0.169525376
75.031621,2.0146584,11.992541,11.886694,8.611420364,0.943032253,0.169488539
75.029357,2.0283684,11.992001,11.969138,8.653261946,0.943140663,0.16946654
75.026984,2.0558534,11.992433,12.134676,8.720191241,0.943465133,0.169419719
75.027739,2.0696282,11.992001,12.21712,8.77180916,0.943509557,0.169403935
75.030004,2.0965508,11.992433,12.38136,8.821584661,0.943920227,0.16933122
75.026121,2.1101316,11.992325,12.463804,8.845000443,0.944130366,0.169300769
75.022347,2.137768,11.992001,12.628696,8.937037641,0.944275989,0.169278602
75.022023,2.151067,11.992433,12.710276,8.950264607,0.944538301,0.169238418
75.024288,2.178206,11.992433,12.874732,9.018993364,0.944810401,0.16918457
75.01868,2.1921106,11.992217,12.957392,9.061387008,0.944898579,0.169178381
75.01717,2.2190764,11.991354,13.121632,9.122697172,0.945198767,0.169115884
75.019111,2.232635,11.991786,13.203642,9.155043603,0.945339856,0.169092361
75.015229,2.2597956,11.992433,13.366584,9.221221368,0.945603639,0.169063061
75.008974,2.2869344,11.992217,13.531472,9.268254396,0.945970492,0.169008545
75.012748,2.3006228,11.991462,13.6137,9.32787211,0.945949205,0.168993205
75.009082,2.3278482,11.992109,13.778156,9.380607946,0.946276725,0.168952086
75.008974,2.3416232,11.992001,13.8606,9.426424666,0.946331833,0.168940969
75.009189,2.3686106,11.992109,14.023974,9.490535342,0.946582621,0.168897247
75.008434,2.3821692,11.99157,14.106634,9.52209214,0.946709515,0.168868718
75.004876,2.4094812,11.991462,14.271738,9.583834729,0.946969432,0.168828856
75.006817,2.4229966,11.991354,14.352884,9.630749603,0.947008459,0.168816009
75.005091,2.4505678,11.991246,14.51799,9.716271325,0.947138173,0.168795253
75.008111,2.4641266,11.991462,14.600002,9.754112348,0.947226426,0.168775771
75.000777,2.4912654,11.990923,14.764456,9.80738568,0.947511097,0.168733978
75.001532,2.5051484,11.991354,14.847334,9.850329937,0.947573944,0.168727153
74.999807,2.5324824,11.991678,15.01114,9.926933938,0.947735289,0.168706867
74.999268,2.5461924,11.991139,15.094234,9.965508195,0.947814337,0.168686427
74.994954,2.5736124,11.991246,15.258906,10.03464801,0.948009145,0.16866297
74.99614,2.5869982,11.991246,15.33962,10.07372222,0.948077579,0.168648128
74.99215,2.6145912,11.991354,15.505374,10.14338692,0.948267509,0.168624839
74.991395,2.6281714,11.990815,15.5876,10.18221169,0.948337311,0.168606546
74.992365,2.6555264,11.990707,15.750974,10.27889086,0.948384685,0.168594425
74.992042,2.669323,11.991139,15.834068,10.3094722,0.948498471,0.168580999
74.993013,2.6962672,11.990815,15.996144,10.39439776,0.948593788,0.168557322
74.989885,2.7101502,11.990923,16.078588,10.43674117,0.94864664,0.16855648
74.989238,2.7375922,11.990923,16.243476,10.51568306,0.948776436,0.168534875
74.991395,2.7514104,11.990815,16.325272,10.57878774,0.948729318,0.16853688
74.984277,2.7787222,11.991139,16.490592,10.61949429,0.949033067,0.168503484
74.982875,2.806272,11.991139,16.653534,10.72750156,0.94901919,0.168509098
74.983738,2.819701,11.990923,16.73641,10.74671742,0.949171688,0.168477051
74.983091,2.847294,11.990923,16.901522,10.83405622,0.949254746,0.168463763
74.983414,2.8607228,11.989629,16.9831,10.88569378,0.949252445,0.168445266
74.978561,2.8883374,11.988442,17.147556,10.99090139,0.94924857,0.168440179
74.97964,2.9020042,11.988335,17.23,11.03221814,0.949298425,0.168427406
74.976189,2.9294026,11.988011,17.39662,11.08457107,0.949531957,0.168389181
74.975542,2.9434372,11.988658,17.478414,11.14307158,0.949507075,0.168404136
74.973708,2.9706624,11.988335,17.64287,11.21293942,0.949654903,0.168377503
74.972306,2.984805,11.98855,17.725098,11.27949018,0.949595114,0.168394273
74.968424,3.0123114,11.988227,17.88977,11.36161452,0.949689133,0.168381785
74.969287,3.0259134,11.988011,17.971566,11.40723923,0.949714743,0.168372272
74.967992,3.0533118,11.987148,18.136454,11.4962963,0.949776044,0.168352193
74.96713,3.0671514,11.987364,18.219114,11.53638646,0.949827736,0.168348
74.9626,3.0949824,11.987472,18.382704,11.64577817,0.949804396,0.168363827
74.964326,3.1088004,11.987472,18.464932,11.70127132,0.949790538,0.168362407
74.966483,3.135615,11.98704,18.627224,11.78074942,0.949883233,0.168335067
74.96109,3.1498878,11.986609,18.710102,11.84834584,0.949820452,0.168352252
74.956345,3.177697,11.987472,18.87499,11.92513851,0.94993404,0.168354897
74.957639,3.1911692,11.986717,18.956136,11.98067124,0.949914107,0.16834492
74.954727,3.2189568,11.987688,19.12124,12.05656888,0.950029976,0.168344563
74.959041,3.232537,11.98704,19.203902,12.10993209,0.95002254,0.168327093
74.958826,3.260303,11.987903,19.366842,12.22066197,0.949994935,0.168344586
74.950953,3.288134,11.987472,19.532164,12.30750784,0.950060585,0.168344583
74.957747,3.301671,11.987472,19.613526,12.36922575,0.950020467,0.168336433
74.954404,3.3293504,11.987148,19.77863,12.46010989,0.950069581,0.168330688
74.953433,3.3433848,11.987472,19.861074,12.51410014,0.950063082,0.16833857
74.950629,3.3707402,11.98704,20.0225,12.62858979,0.95001332,0.168347619
74.948257,3.3847746,11.987364,20.104946,12.67765071,0.950025611,0.168355319
74.947286,3.412454,11.987688,20.2694,12.77092275,0.950065632,0.168354959
74.948257,3.4264884,11.987364,20.351846,12.84434714,0.94998489,0.168362536
74.946423,3.4540814,11.987472,20.517382,12.91950344,0.950092899,0.168349032
74.94006,3.4680942,11.987148,20.59788,12.98935139,0.950021578,0.168371415
74.942864,3.4958602,11.986933,20.763634,13.09748594,0.950007645,0.168364565
74.942649,3.5100242,11.986825,20.846294,13.16963353,0.949934963,0.168376413
74.938227,3.537574,11.986717,21.00989,13.25991781,0.949981359,0.168376607
74.94157,3.5516516,11.987148,21.092334,13.32941767,0.949920725,0.168385898
74.940276,3.5789638,11.986717,21.254842,13.43275903,0.949916735,0.168383458
74.935207,3.5932362,11.98704,21.33772,13.4837953,0.94992275,0.16839832
74.934237,3.6211102,11.985854,21.50304,13.61283193,0.949832039,0.168399919
74.934992,3.6348634,11.986393,21.58462,13.65672172,0.949861227,0.16840062
74.931325,3.663062,11.986501,21.749292,13.78017891,0.949794977,0.168422126
74.931325,3.6766638,11.985746,21.83152,13.8302366,0.94979901,0.168410802
74.927982,3.704819,11.98607,21.995542,13.95450525,0.949730634,0.168434995
74.92809,3.7186588,11.985315,22.077986,14.02038447,0.949681356,0.168432882
74.92658,3.7469222,11.986393,22.24201,14.142593,0.949624606,0.168461492
74.922805,3.7749262,11.985854,22.406898,14.26225155,0.949572714,0.168471611
74.925933,3.788766,11.985423,22.489126,14.33513946,0.949502256,0.16847102
74.921619,3.816878,11.985638,22.654664,14.43607757,0.949518323,0.168480892
74.922482,3.8310854,11.985854,22.737324,14.50818111,0.949454909,0.16849324
74.922482,3.859154,11.985854,22.90113,14.64779549,0.949339671,0.168513693
74.919138,3.8732318,11.985962,22.984008,14.69374123,0.949363215,0.168518554
74.913746,3.9015384,11.985423,23.148896,14.82954616,0.949262337,0.168541014
74.912128,3.9153996,11.986286,23.22961,14.87416688,0.949288737,0.168552102
74.916011,3.9435766,11.985207,23.394714,15.04653795,0.949070237,0.168566993
74.91504,3.9580866,11.985854,23.477158,15.12642784,0.948986858,0.16859309
74.914717,3.9858316,11.985531,23.640966,15.24791546,0.948934877,0.168598508
74.911913,4.000039,11.985746,23.72341,15.30780705,0.948914474,0.168611469
74.907599,4.0276752,11.986178,23.885702,15.40520296,0.94893926,0.168622852
74.908785,4.0419908,11.984991,23.967928,15.52521844,0.94872453,0.168641645
74.906628,4.0704054,11.985638,24.133682,15.64276705,0.948695476,0.16866077
74.90555,4.0843966,11.984776,24.215046,15.7320716,0.948578586,0.16867185
74.901883,4.112768,11.984991,24.380366,15.85560046,0.948529813,0.168691807
74.902854,4.1268456,11.985099,24.462162,15.93108013,0.948461872,0.168703224
74.901236,4.154763,11.984344,24.626184,16.06822352,0.948366374,0.168713228
74.899834,4.1692082,11.984776,24.708846,16.14301756,0.948304793,0.168733424
74.899079,4.197061,11.98456,24.872218,16.27341445,0.948232532,0.168744943
74.893579,4.2118306,11.983805,24.955312,16.37947505,0.948074044,0.168774913
74.894657,4.2397912,11.983697,25.119984,16.50743077,0.948014266,0.168781604
74.897246,4.2538904,11.983805,25.201352,16.59658764,0.947908525,0.168796119
74.895952,4.2824134,11.983482,25.366458,16.7569356,0.947754647,0.168821891
74.890128,4.3110226,11.983805,25.530696,16.89815195,0.947659925,0.168856446
74.883549,4.3259004,11.983374,25.613142,17.00691467,0.947499602,0.168893781
74.890559,4.3536448,11.98305,25.778246,17.14488203,0.947415901,0.168888325
74.887108,4.3679818,11.983913,25.858742,17.21661038,0.9473668,0.168917026
74.886138,4.3966562,11.983482,26.024714,17.38191116,0.947207335,0.168941576
74.885814,4.4112102,11.98305,26.106724,17.49888752,0.947027175,0.168968355
74.885706,4.4396682,11.983913,26.270532,17.64391761,0.946930429,0.168998032
74.883657,4.4540054,11.983697,26.352976,17.72613322,0.94685331,0.169013374
74.878265,4.4821606,11.983374,26.515268,17.87403603,0.946742664,0.169040743
74.879451,4.4972762,11.98305,26.598144,18.02668339,0.946469214,0.169082331
74.878157,4.5254964,11.983589,26.763248,18.14106561,0.946464554,0.169093691
74.875461,4.5401794,11.983482,26.844828,18.25351247,0.94630499,0.169126783
74.871902,4.5687022,11.982942,27.009932,18.40897481,0.946183198,0.169148971
74.873196,4.5831908,11.982403,27.09216,18.52896381,0.946004592,0.169170373
74.868667,4.6115838,11.982834,27.255966,18.65941578,0.945955956,0.16919539
74.869853,4.6261374,11.982834,27.338198,18.7691386,0.94581004,0.169218812
74.865,4.6549198,11.982727,27.502222,18.93895271,0.945654332,0.169256135
74.866618,4.6696678,11.983374,27.584666,19.04486603,0.945524187,0.169284914
74.869637,4.6978014,11.98208,27.749338,19.22789765,0.945332222,0.169294179
74.870177,4.7122682,11.982511,27.831998,19.31113202,0.945264527,0.169311172
74.865539,4.7413966,11.98208,27.997536,19.49849592,0.945069586,0.169350496
74.86651,4.7556688,11.982295,28.07998,19.57772182,0.945012628,0.169361545
74.859284,4.785208,11.982727,28.244004,19.77705535,0.944790331,0.169423854
74.86101,4.8136876,11.981972,28.409108,19.96037896,0.944609511,0.169441702
74.860686,4.8280034,11.982511,28.489388,20.05324144,0.944516581,0.169466729
74.858098,4.8570668,11.981972,28.654494,20.25343772,0.944296064,0.169504539
74.853568,4.872204,11.982187,28.737586,20.36272404,0.944166108,0.169541172
74.850764,4.9010512,11.98208,28.90096,20.55381193,0.94397177,0.169580914
74.855294,4.9158208,11.981756,28.983188,20.70572452,0.943730654,0.169609389
74.848823,4.9447762,11.982187,29.145914,20.87888673,0.943587451,0.169655898
74.855078,4.9592214,11.982295,29.22814,21.00270893,0.943422917,0.169672836
74.847745,4.9885228,11.98154,29.393464,21.20071781,0.943219412,0.169715376
74.846882,5.00286,11.981109,29.474826,21.30736902,0.943096659,0.169733318
74.844833,5.0324856,11.980893,29.640364,21.53751474,0.942819069,0.169784878
74.846451,5.0470182,11.980138,29.722376,21.67323423,0.942625668,0.169805341
74.843431,5.0759518,11.979923,29.886398,21.86490152,0.942445889,0.169841538
74.839656,5.0905268,11.979383,29.96841,21.97021328,0.942331353,0.169863093
74.840843,5.1195904,11.979815,30.13265,22.17088889,0.942135898,0.169901764
74.836529,5.1349006,11.98003,30.215094,22.30040509,0.941968062,0.169944883
74.836097,5.1641154,11.980354,30.37955,22.50447763,0.941767978,0.169986567
74.835235,5.178366,11.980462,30.457666,22.6273264,0.941610552,0.170018477
74.832862,5.2077754,11.979383,30.623204,22.86564843,0.941326915,0.170059782
74.831244,5.222718,11.979599,30.705864,22.97854733,0.941204644,0.170088619
74.82747,5.2519332,11.979599,30.86967,23.1826061,0.94100951,0.17013247
74.829303,5.267265,11.979923,30.952764,23.33403931,0.940798453,0.170171071
74.826715,5.2970636,11.979707,31.115704,23.60485132,0.94044621,0.170237627
74.827146,5.3264298,11.979383,31.281458,23.82897412,0.94021256,0.170274346
74.82995,5.3415672,11.979599,31.363038,23.99258784,0.939974893,0.170314088
74.824234,5.3710198,11.979491,31.527282,24.20165136,0.939779277,0.170361016
74.823372,5.3866976,11.979383,31.609944,24.38325259,0.939503289,0.170411488
74.817117,5.4159126,11.978952,31.772018,24.60748809,0.939271205,0.170461713
74.820783,5.4305956,11.979168,31.854464,24.73143914,0.939133311,0.170481462
74.819166,5.4604382,11.978413,32.02,24.99664786,0.9388155,0.170532111
74.816901,5.4754456,11.977119,32.101146,25.17662571,0.938542012,0.17056854
74.813018,5.5048984,11.977119,32.266468,25.37873614,0.938376905,0.170607406
